! Created with skrf 1.12.0 (http://scikit-rf.org).
# Hz S RI R 50.0 
! Port[1] = in_plus
! Port[2] = in_minus
! Port[3] = out_plus
! Port[4] = out_minus
!freq ReS11 ImS11 ReS12 ImS12 ReS13 ImS13
! ReS14 ImS14
! ReS21 ImS21 ReS22 ImS22 ReS23 ImS23
! ReS24 ImS24
! ReS31 ImS31 ReS32 ImS32 ReS33 ImS33
! ReS34 ImS34
! ReS41 ImS41 ReS42 ImS42 ReS43 ImS43
! ReS44 ImS44
!
20000000000.0 0.3 0.0 0.02 0.0 0.03 0.0 0.0 0.0
 0.02 0.0 0.3 0.0 0.0 0.0 0.03 0.0
 -1.096433671049478 -3.374475858993607 0.0 0.0 0.3 0.0 0.02 0.0
 0.0 0.0 -1.096433671049478 -3.374475858993607 0.02 0.0 0.3 0.0
22000000000.0 0.3 0.0 0.02 0.0 0.03 0.0 0.0 0.0
 0.02 0.0 0.3 0.0 0.0 0.0 0.03 0.0
 -1.6858736995004948 -3.0665928751601514 0.0 0.0 0.3 0.0 0.02 0.0
 0.0 0.0 -1.6858736995004948 -3.0665928751601514 0.02 0.0 0.3 0.0
24000000000.0 0.3 0.0 0.02 0.0 0.03 0.0 0.0 0.0
 0.02 0.0 0.3 0.0 0.0 0.0 0.03 0.0
 -2.2000289936424315 -2.659378218194324 0.0 0.0 0.3 0.0 0.02 0.0
 0.0 0.0 -2.2000289936424315 -2.659378218194324 0.02 0.0 0.3 0.0
26000000000.0 0.3 0.0 0.02 0.0 0.03 0.0 0.0 0.0
 0.02 0.0 0.3 0.0 0.0 0.0 0.03 0.0
 -2.622890181139543 -2.1698434642234075 0.0 0.0 0.3 0.0 0.02 0.0
 0.0 0.0 -2.622890181139543 -2.1698434642234075 0.02 0.0 0.3 0.0
28000000000.0 0.3 0.0 0.02 0.0 0.03 0.0 0.0 0.0
 0.02 0.0 0.3 0.0 0.0 0.0 0.03 0.0
 -2.9420911410309096 -1.6174282919568777 0.0 0.0 0.3 0.0 0.02 0.0
 0.0 0.0 -2.9420911410309096 -1.6174282919568777 0.02 0.0 0.3 0.0
30000000000.0 0.3 0.0 0.02 0.0 0.03 0.0 0.0 0.0
 0.02 0.0 0.3 0.0 0.0 0.0 0.03 0.0
 -3.149244108341404 -1.0232514390455592 0.0 0.0 0.3 0.0 0.02 0.0
 0.0 0.0 -3.149244108341404 -1.0232514390455592 0.02 0.0 0.3 0.0
32000000000.0 0.3 0.0 0.02 0.0 0.03 0.0 0.0 0.0
 0.02 0.0 0.3 0.0 0.0 0.0 0.03 0.0
 -3.2401258956859977 -0.4093230904891511 0.0 0.0 0.3 0.0 0.02 0.0
 0.0 0.0 -3.2401258956859977 -0.4093230904891511 0.02 0.0 0.3 0.0
34000000000.0 0.3 0.0 0.02 0.0 0.03 0.0 0.0 0.0
 0.02 0.0 0.3 0.0 0.0 0.0 0.03 0.0
 -3.214712747807013 0.2022525828443456 0.0 0.0 0.3 0.0 0.02 0.0
 0.0 0.0 -3.214712747807013 0.2022525828443456 0.02 0.0 0.3 0.0
36000000000.0 0.3 0.0 0.02 0.0 0.03 0.0 0.0 0.0
 0.02 0.0 0.3 0.0 0.0 0.0 0.03 0.0
 -3.077066729857537 0.7900564541668451 0.0 0.0 0.3 0.0 0.02 0.0
 0.0 0.0 -3.077066729857537 0.7900564541668451 0.02 0.0 0.3 0.0
38000000000.0 0.3 0.0 0.02 0.0 0.03 0.0 0.0 0.0
 0.02 0.0 0.3 0.0 0.0 0.0 0.03 0.0
 -2.835081686466329 1.3340881759700445 0.0 0.0 0.3 0.0 0.02 0.0
 0.0 0.0 -2.835081686466329 1.3340881759700445 0.02 0.0 0.3 0.0
40000000000.0 0.3 0.0 0.02 0.0 0.03 0.0 0.0 0.0
 0.02 0.0 0.3 0.0 0.0 0.0 0.03 0.0
 -2.5001015225427734 1.816430080458278 0.0 0.0 0.3 0.0 0.02 0.0
 0.0 0.0 -2.5001015225427734 1.816430080458278 0.02 0.0 0.3 0.0
42000000000.0 0.3 0.0 0.02 0.0 0.03 0.0 0.0 0.0
 0.02 0.0 0.3 0.0 0.0 0.0 0.03 0.0
 -2.0864276943243873 2.2218198271137073 0.0 0.0 0.3 0.0 0.02 0.0
 0.0 0.0 -2.0864276943243873 2.2218198271137073 0.02 0.0 0.3 0.0
44000000000.0 0.3 0.0 0.02 0.0 0.03 0.0 0.0 0.0
 0.02 0.0 0.3 0.0 0.0 0.0 0.03 0.0
 -1.610736230699599 2.538114168498861 0.0 0.0 0.3 0.0 0.02 0.0
 0.0 0.0 -1.610736230699599 2.538114168498861 0.02 0.0 0.3 0.0
46000000000.0 0.3 0.0 0.02 0.0 0.03 0.0 0.0 0.0
 0.02 0.0 0.3 0.0 0.0 0.0 0.03 0.0
 -1.0914272290541402 2.7566305106031246 0.0 0.0 0.3 0.0 0.02 0.0
 0.0 0.0 -1.0914272290541402 2.7566305106031246 0.02 0.0 0.3 0.0
48000000000.0 0.3 0.0 0.02 0.0 0.03 0.0 0.0 0.0
 0.02 0.0 0.3 0.0 0.0 0.0 0.03 0.0
 -0.5479315166092593 2.8723575999434874 0.0 0.0 0.3 0.0 0.02 0.0
 0.0 0.0 -0.5479315166092593 2.8723575999434874 0.02 0.0 0.3 0.0
50000000000.0 0.3 0.0 0.02 0.0 0.03 0.0 0.0 0.0
 0.02 0.0 0.3 0.0 0.0 0.0 0.03 0.0
 -5.297879923416192e-16 2.884031503126606 0.0 0.0 0.3 0.0 0.02 0.0
 0.0 0.0 -5.297879923416192e-16 2.884031503126606 0.02 0.0 0.3 0.0
52000000000.0 0.3 0.0 0.02 0.0 0.03 0.0 0.0 0.0
 0.02 0.0 0.3 0.0 0.0 0.0 0.03 0.0
 0.532998861601558 2.7940778810396942 0.0 0.0 0.3 0.0 0.02 0.0
 0.0 0.0 0.532998861601558 2.7940778810396942 0.02 0.0 0.3 0.0
54000000000.0 0.3 0.0 0.02 0.0 0.03 0.0 0.0 0.0
 0.02 0.0 0.3 0.0 0.0 0.0 0.03 0.0
 1.0327490030575244 2.608426229287437 0.0 0.0 0.3 0.0 0.02 0.0
 0.0 0.0 1.0327490030575244 2.608426229287437 0.02 0.0 0.3 0.0
56000000000.0 0.3 0.0 0.02 0.0 0.03 0.0 0.0 0.0
 0.02 0.0 0.3 0.0 0.0 0.0 0.03 0.0
 1.482601473754762 2.3362060994554334 0.0 0.0 0.3 0.0 0.02 0.0
 0.0 0.0 1.482601473754762 2.3362060994554334 0.02 0.0 0.3 0.0
58000000000.0 0.3 0.0 0.02 0.0 0.03 0.0 0.0 0.0
 0.02 0.0 0.3 0.0 0.0 0.0 0.03 0.0
 1.868113843364932 1.9893391885971061 0.0 0.0 0.3 0.0 0.02 0.0
 0.0 0.0 1.868113843364932 1.9893391885971061 0.02 0.0 0.3 0.0
60000000000.0 0.3 0.0 0.02 0.0 0.03 0.0 0.0 0.0
 0.02 0.0 0.3 0.0 0.0 0.0 0.03 0.0
 2.1774973973285165 1.582044463780155 0.0 0.0 0.3 0.0 0.02 0.0
 0.0 0.0 2.1774973973285165 1.582044463780155 0.02 0.0 0.3 0.0
62000000000.0 0.3 0.0 0.02 0.0 0.03 0.0 0.0 0.0
 0.02 0.0 0.3 0.0 0.0 0.0 0.03 0.0
 2.401958926102229 1.1302760755626455 0.0 0.0 0.3 0.0 0.02 0.0
 0.0 0.0 2.401958926102229 1.1302760755626455 0.02 0.0 0.3 0.0
64000000000.0 0.3 0.0 0.02 0.0 0.03 0.0 0.0 0.0
 0.02 0.0 0.3 0.0 0.0 0.0 0.03 0.0
 2.5359279745140135 0.6511156368909187 0.0 0.0 0.3 0.0 0.02 0.0
 0.0 0.0 2.5359279745140135 0.6511156368909187 0.02 0.0 0.3 0.0
66000000000.0 0.3 0.0 0.02 0.0 0.03 0.0 0.0 0.0
 0.02 0.0 0.3 0.0 0.0 0.0 0.03 0.0
 2.577164690009611 0.1621414589298098 0.0 0.0 0.3 0.0 0.02 0.0
 0.0 0.0 2.577164690009611 0.1621414589298098 0.02 0.0 0.3 0.0
68000000000.0 0.3 0.0 0.02 0.0 0.03 0.0 0.0 0.0
 0.02 0.0 0.3 0.0 0.0 0.0 0.03 0.0
 2.526747735342084 -0.31920247089587905 0.0 0.0 0.3 0.0 0.02 0.0
 0.0 0.0 2.526747735342084 -0.31920247089587905 0.02 0.0 0.3 0.0
70000000000.0 0.3 0.0 0.02 0.0 0.03 0.0 0.0 0.0
 0.02 0.0 0.3 0.0 0.0 0.0 0.03 0.0
 2.388945958880566 -0.776215595276302 0.0 0.0 0.3 0.0 0.02 0.0
 0.0 0.0 2.388945958880566 -0.776215595276302 0.02 0.0 0.3 0.0
72000000000.0 0.3 0.0 0.02 0.0 0.03 0.0 0.0 0.0
 0.02 0.0 0.3 0.0 0.0 0.0 0.03 0.0
 2.1709814983920612 -1.1935071785654676 0.0 0.0 0.3 0.0 0.02 0.0
 0.0 0.0 2.1709814983920612 -1.1935071785654676 0.02 0.0 0.3 0.0
74000000000.0 0.3 0.0 0.02 0.0 0.03 0.0 0.0 0.0
 0.02 0.0 0.3 0.0 0.0 0.0 0.03 0.0
 1.8826955986536709 -1.5575012515720383 0.0 0.0 0.3 0.0 0.02 0.0
 0.0 0.0 1.8826955986536709 -1.5575012515720383 0.02 0.0 0.3 0.0
76000000000.0 0.3 0.0 0.02 0.0 0.03 0.0 0.0 0.0
 0.02 0.0 0.3 0.0 0.0 0.0 0.03 0.0
 1.536131533270437 -1.8568640466402855 0.0 0.0 0.3 0.0 0.02 0.0
 0.0 0.0 1.536131533270437 -1.8568640466402855 0.02 0.0 0.3 0.0
78000000000.0 0.3 0.0 0.02 0.0 0.03 0.0 0.0 0.0
 0.02 0.0 0.3 0.0 0.0 0.0 0.03 0.0
 1.1450515408345103 -2.0828410205667494 0.0 0.0 0.3 0.0 0.02 0.0
 0.0 0.0 1.1450515408345103 -2.0828410205667494 0.02 0.0 0.3 0.0
80000000000.0 0.3 0.0 0.02 0.0 0.03 0.0 0.0 0.0
 0.02 0.0 0.3 0.0 0.0 0.0 0.03 0.0
 0.7244065426373067 -2.22949409049688 0.0 0.0 0.3 0.0 0.02 0.0
 0.0 0.0 0.7244065426373067 -2.22949409049688 0.02 0.0 0.3 0.0
82000000000.0 0.3 0.0 0.02 0.0 0.03 0.0 0.0 0.0
 0.02 0.0 0.3 0.0 0.0 0.0 0.03 0.0
 0.289778556362885 -2.2938334687247806 0.0 0.0 0.3 0.0 0.02 0.0
 0.0 0.0 0.289778556362885 -2.2938334687247806 0.02 0.0 0.3 0.0
84000000000.0 0.3 0.0 0.02 0.0 0.03 0.0 0.0 0.0
 0.02 0.0 0.3 0.0 0.0 0.0 0.03 0.0
 -0.14318386340545564 -2.275842337815923 0.0 0.0 0.3 0.0 0.02 0.0
 0.0 0.0 -0.14318386340545564 -2.275842337815923 0.02 0.0 0.3 0.0
86000000000.0 0.3 0.0 0.02 0.0 0.03 0.0 0.0 0.0
 0.02 0.0 0.3 0.0 0.0 0.0 0.03 0.0
 -0.5593171361528974 -2.1783964196713277 0.0 0.0 0.3 0.0 0.02 0.0
 0.0 0.0 -0.5593171361528974 -2.1783964196713277 0.02 0.0 0.3 0.0
88000000000.0 0.3 0.0 0.02 0.0 0.03 0.0 0.0 0.0
 0.02 0.0 0.3 0.0 0.0 0.0 0.03 0.0
 -0.9444621001747157 -2.0070841283185104 0.0 0.0 0.3 0.0 0.02 0.0
 0.0 0.0 -0.9444621001747157 -2.0070841283185104 0.02 0.0 0.3 0.0
90000000000.0 0.3 0.0 0.02 0.0 0.03 0.0 0.0 0.0
 0.02 0.0 0.3 0.0 0.0 0.0 0.03 0.0
 -1.285934018088978 -1.7699363334165212 0.0 0.0 0.3 0.0 0.02 0.0
 0.0 0.0 -1.285934018088978 -1.7699363334165212 0.02 0.0 0.3 0.0
92000000000.0 0.3 0.0 0.02 0.0 0.03 0.0 0.0 0.0
 0.02 0.0 0.3 0.0 0.0 0.0 0.03 0.0
 -1.5729279802662441 -1.4770776906192653 0.0 0.0 0.3 0.0 0.02 0.0
 0.0 0.0 -1.5729279802662441 -1.4770776906192653 0.02 0.0 0.3 0.0
94000000000.0 0.3 0.0 0.02 0.0 0.03 0.0 0.0 0.0
 0.02 0.0 0.3 0.0 0.0 0.0 0.03 0.0
 -1.79684722587442 -1.1403139242785774 0.0 0.0 0.3 0.0 0.02 0.0
 0.0 0.0 -1.79684722587442 -1.1403139242785774 0.02 0.0 0.3 0.0
96000000000.0 0.3 0.0 0.02 0.0 0.03 0.0 0.0 0.0
 0.02 0.0 0.3 0.0 0.0 0.0 0.03 0.0
 -1.9515449490861745 -0.7726713057709433 0.0 0.0 0.3 0.0 0.02 0.0
 0.0 0.0 -1.9515449490861745 -0.7726713057709433 0.02 0.0 0.3 0.0
98000000000.0 0.3 0.0 0.02 0.0 0.03 0.0 0.0 0.0
 0.02 0.0 0.3 0.0 0.0 0.0 0.03 0.0
 -2.033473454123732 -0.3879058073147328 0.0 0.0 0.3 0.0 0.02 0.0
 0.0 0.0 -2.033473454123732 -0.3879058073147328 0.02 0.0 0.3 0.0
100000000000.0 0.3 0.0 0.02 0.0 0.03 0.0 0.0 0.0
 0.02 0.0 0.3 0.0 0.0 0.0 0.03 0.0
 -2.041737944669529 -7.501223515911703e-16 0.0 0.0 0.3 0.0 0.02 0.0
 0.0 0.0 -2.041737944669529 -7.501223515911703e-16 0.02 0.0 0.3 0.0
