! Created with skrf 1.12.0 (http://scikit-rf.org).
# Hz S RI R 50.0 
! Port[1] = in_plus
! Port[2] = in_minus
! Port[3] = out_plus
! Port[4] = out_minus
!freq ReS11 ImS11 ReS12 ImS12 ReS13 ImS13
! ReS14 ImS14
! ReS21 ImS21 ReS22 ImS22 ReS23 ImS23
! ReS24 ImS24
! ReS31 ImS31 ReS32 ImS32 ReS33 ImS33
! ReS34 ImS34
! ReS41 ImS41 ReS42 ImS42 ReS43 ImS43
! ReS44 ImS44
!
20000000000.0 0.3 0.0 0.02 0.0 0.03 0.0 0.0 0.0
 0.02 0.0 0.3 0.0 0.0 0.0 0.03 0.0
 -1.3803282108309542 -4.248213410373002 0.0 0.0 0.3 0.0 0.02 0.0
 0.0 0.0 -1.3803282108309542 -4.248213410373002 0.02 0.0 0.3 0.0
22000000000.0 0.3 0.0 0.02 0.0 0.03 0.0 0.0 0.0
 0.02 0.0 0.3 0.0 0.0 0.0 0.03 0.0
 -2.1223892413766166 -3.8606116981660525 0.0 0.0 0.3 0.0 0.02 0.0
 0.0 0.0 -2.1223892413766166 -3.8606116981660525 0.02 0.0 0.3 0.0
24000000000.0 0.3 0.0 0.02 0.0 0.03 0.0 0.0 0.0
 0.02 0.0 0.3 0.0 0.0 0.0 0.03 0.0
 -2.7696724067804057 -3.3479588184567284 0.0 0.0 0.3 0.0 0.02 0.0
 0.0 0.0 -2.7696724067804057 -3.3479588184567284 0.02 0.0 0.3 0.0
26000000000.0 0.3 0.0 0.02 0.0 0.03 0.0 0.0 0.0
 0.02 0.0 0.3 0.0 0.0 0.0 0.03 0.0
 -3.3020231013819763 -2.7316710767263355 0.0 0.0 0.3 0.0 0.02 0.0
 0.0 0.0 -3.3020231013819763 -2.7316710767263355 0.02 0.0 0.3 0.0
28000000000.0 0.3 0.0 0.02 0.0 0.03 0.0 0.0 0.0
 0.02 0.0 0.3 0.0 0.0 0.0 0.03 0.0
 -3.7038733012583096 -2.0362215784993487 0.0 0.0 0.3 0.0 0.02 0.0
 0.0 0.0 -3.7038733012583096 -2.0362215784993487 0.02 0.0 0.3 0.0
30000000000.0 0.3 0.0 0.02 0.0 0.03 0.0 0.0 0.0
 0.02 0.0 0.3 0.0 0.0 0.0 0.03 0.0
 -3.9646634359340562 -1.2881972392694045 0.0 0.0 0.3 0.0 0.02 0.0
 0.0 0.0 -3.9646634359340562 -1.2881972392694045 0.02 0.0 0.3 0.0
32000000000.0 0.3 0.0 0.02 0.0 0.03 0.0 0.0 0.0
 0.02 0.0 0.3 0.0 0.0 0.0 0.03 0.0
 -4.0790768274914395 -0.5153072402509157 0.0 0.0 0.3 0.0 0.02 0.0
 0.0 0.0 -4.0790768274914395 -0.5153072402509157 0.02 0.0 0.3 0.0
34000000000.0 0.3 0.0 0.02 0.0 0.03 0.0 0.0 0.0
 0.02 0.0 0.3 0.0 0.0 0.0 0.03 0.0
 -4.047083569832902 0.2546209161437517 0.0 0.0 0.3 0.0 0.02 0.0
 0.0 0.0 -4.047083569832902 0.2546209161437517 0.02 0.0 0.3 0.0
36000000000.0 0.3 0.0 0.02 0.0 0.03 0.0 0.0 0.0
 0.02 0.0 0.3 0.0 0.0 0.0 0.03 0.0
 -3.873797500004031 0.9946221469026351 0.0 0.0 0.3 0.0 0.02 0.0
 0.0 0.0 -3.873797500004031 0.9946221469026351 0.02 0.0 0.3 0.0
38000000000.0 0.3 0.0 0.02 0.0 0.03 0.0 0.0 0.0
 0.02 0.0 0.3 0.0 0.0 0.0 0.03 0.0
 -3.5691563796047245 1.6795175063028174 0.0 0.0 0.3 0.0 0.02 0.0
 0.0 0.0 -3.5691563796047245 1.6795175063028174 0.02 0.0 0.3 0.0
40000000000.0 0.3 0.0 0.02 0.0 0.03 0.0 0.0 0.0
 0.02 0.0 0.3 0.0 0.0 0.0 0.03 0.0
 -3.1474413387943856 2.28674998703625 0.0 0.0 0.3 0.0 0.02 0.0
 0.0 0.0 -3.1474413387943856 2.28674998703625 0.02 0.0 0.3 0.0
42000000000.0 0.3 0.0 0.02 0.0 0.03 0.0 0.0 0.0
 0.02 0.0 0.3 0.0 0.0 0.0 0.03 0.0
 -2.626656844256084 2.7971054407815696 0.0 0.0 0.3 0.0 0.02 0.0
 0.0 0.0 -2.626656844256084 2.7971054407815696 0.02 0.0 0.3 0.0
44000000000.0 0.3 0.0 0.02 0.0 0.03 0.0 0.0 0.0
 0.02 0.0 0.3 0.0 0.0 0.0 0.03 0.0
 -2.027796772525277 3.195296424758039 0.0 0.0 0.3 0.0 0.02 0.0
 0.0 0.0 -2.027796772525277 3.195296424758039 0.02 0.0 0.3 0.0
46000000000.0 0.3 0.0 0.02 0.0 0.03 0.0 0.0 0.0
 0.02 0.0 0.3 0.0 0.0 0.0 0.03 0.0
 -1.3740254737803503 3.4703922007254038 0.0 0.0 0.3 0.0 0.02 0.0
 0.0 0.0 -1.3740254737803503 3.4703922007254038 0.02 0.0 0.3 0.0
48000000000.0 0.3 0.0 0.02 0.0 0.03 0.0 0.0 0.0
 0.02 0.0 0.3 0.0 0.0 0.0 0.03 0.0
 -0.6898049101823144 3.616083974328961 0.0 0.0 0.3 0.0 0.02 0.0
 0.0 0.0 -0.6898049101823144 3.616083974328961 0.02 0.0 0.3 0.0
50000000000.0 0.3 0.0 0.02 0.0 0.03 0.0 0.0 0.0
 0.02 0.0 0.3 0.0 0.0 0.0 0.03 0.0
 -6.669635664222779e-16 3.630780547701013 0.0 0.0 0.3 0.0 0.02 0.0
 0.0 0.0 -6.669635664222779e-16 3.630780547701013 0.02 0.0 0.3 0.0
52000000000.0 0.3 0.0 0.02 0.0 0.03 0.0 0.0 0.0
 0.02 0.0 0.3 0.0 0.0 0.0 0.03 0.0
 0.6710058113275638 3.5175356469728714 0.0 0.0 0.3 0.0 0.02 0.0
 0.0 0.0 0.6710058113275638 3.5175356469728714 0.02 0.0 0.3 0.0
54000000000.0 0.3 0.0 0.02 0.0 0.03 0.0 0.0 0.0
 0.02 0.0 0.3 0.0 0.0 0.0 0.03 0.0
 1.3001539639542095 3.2838140648403935 0.0 0.0 0.3 0.0 0.02 0.0
 0.0 0.0 1.3001539639542095 3.2838140648403935 0.02 0.0 0.3 0.0
56000000000.0 0.3 0.0 0.02 0.0 0.03 0.0 0.0 0.0
 0.02 0.0 0.3 0.0 0.0 0.0 0.03 0.0
 1.8664846708733533 2.941109225792977 0.0 0.0 0.3 0.0 0.02 0.0
 0.0 0.0 1.8664846708733533 2.941109225792977 0.02 0.0 0.3 0.0
58000000000.0 0.3 0.0 0.02 0.0 0.03 0.0 0.0 0.0
 0.02 0.0 0.3 0.0 0.0 0.0 0.03 0.0
 2.3518159895365813 2.5044296572028864 0.0 0.0 0.3 0.0 0.02 0.0
 0.0 0.0 2.3518159895365813 2.5044296572028864 0.02 0.0 0.3 0.0
60000000000.0 0.3 0.0 0.02 0.0 0.03 0.0 0.0 0.0
 0.02 0.0 0.3 0.0 0.0 0.0 0.03 0.0
 2.74130680761253 1.9916759780411142 0.0 0.0 0.3 0.0 0.02 0.0
 0.0 0.0 2.74130680761253 1.9916759780411142 0.02 0.0 0.3 0.0
62000000000.0 0.3 0.0 0.02 0.0 0.03 0.0 0.0 0.0
 0.02 0.0 0.3 0.0 0.0 0.0 0.03 0.0
 3.0238871301559245 1.4229332738687988 0.0 0.0 0.3 0.0 0.02 0.0
 0.0 0.0 3.0238871301559245 1.4229332738687988 0.02 0.0 0.3 0.0
64000000000.0 0.3 0.0 0.02 0.0 0.03 0.0 0.0 0.0
 0.02 0.0 0.3 0.0 0.0 0.0 0.03 0.0
 3.1925441695954033 0.8197060212985213 0.0 0.0 0.3 0.0 0.02 0.0
 0.0 0.0 3.1925441695954033 0.8197060212985213 0.02 0.0 0.3 0.0
66000000000.0 0.3 0.0 0.02 0.0 0.03 0.0 0.0 0.0
 0.02 0.0 0.3 0.0 0.0 0.0 0.03 0.0
 3.2444581186317367 0.20412400295211786 0.0 0.0 0.3 0.0 0.02 0.0
 0.0 0.0 3.2444581186317367 0.20412400295211786 0.02 0.0 0.3 0.0
68000000000.0 0.3 0.0 0.02 0.0 0.03 0.0 0.0 0.0
 0.02 0.0 0.3 0.0 0.0 0.0 0.03 0.0
 3.1809869332155127 -0.4018521021183102 0.0 0.0 0.3 0.0 0.02 0.0
 0.0 0.0 3.1809869332155127 -0.4018521021183102 0.02 0.0 0.3 0.0
70000000000.0 0.3 0.0 0.02 0.0 0.03 0.0 0.0 0.0
 0.02 0.0 0.3 0.0 0.0 0.0 0.03 0.0
 3.0075047750377286 -0.9771975379242732 0.0 0.0 0.3 0.0 0.02 0.0
 0.0 0.0 3.0075047750377286 -0.9771975379242732 0.02 0.0 0.3 0.0
72000000000.0 0.3 0.0 0.02 0.0 0.03 0.0 0.0 0.0
 0.02 0.0 0.3 0.0 0.0 0.0 0.03 0.0
 2.733103776860743 -1.5025365162548259 0.0 0.0 0.3 0.0 0.02 0.0
 0.0 0.0 2.733103776860743 -1.5025365162548259 0.02 0.0 0.3 0.0
74000000000.0 0.3 0.0 0.02 0.0 0.03 0.0 0.0 0.0
 0.02 0.0 0.3 0.0 0.0 0.0 0.03 0.0
 2.3701733318181386 -1.960777904505259 0.0 0.0 0.3 0.0 0.02 0.0
 0.0 0.0 2.3701733318181386 -1.960777904505259 0.02 0.0 0.3 0.0
76000000000.0 0.3 0.0 0.02 0.0 0.03 0.0 0.0 0.0
 0.02 0.0 0.3 0.0 0.0 0.0 0.03 0.0
 1.9338750230924908 -2.3376533345624053 0.0 0.0 0.3 0.0 0.02 0.0
 0.0 0.0 1.9338750230924908 -2.3376533345624053 0.02 0.0 0.3 0.0
78000000000.0 0.3 0.0 0.02 0.0 0.03 0.0 0.0 0.0
 0.02 0.0 0.3 0.0 0.0 0.0 0.03 0.0
 1.4415344825706315 -2.6221414895187785 0.0 0.0 0.3 0.0 0.02 0.0
 0.0 0.0 1.4415344825706315 -2.6221414895187785 0.02 0.0 0.3 0.0
80000000000.0 0.3 0.0 0.02 0.0 0.03 0.0 0.0 0.0
 0.02 0.0 0.3 0.0 0.0 0.0 0.03 0.0
 0.9119738049960603 -2.806766765971447 0.0 0.0 0.3 0.0 0.02 0.0
 0.0 0.0 0.9119738049960603 -2.806766765971447 0.02 0.0 0.3 0.0
82000000000.0 0.3 0.0 0.02 0.0 0.03 0.0 0.0 0.0
 0.02 0.0 0.3 0.0 0.0 0.0 0.03 0.0
 0.3648095883982644 -2.8877652442015878 0.0 0.0 0.3 0.0 0.02 0.0
 0.0 0.0 0.3648095883982644 -2.8877652442015878 0.02 0.0 0.3 0.0
84000000000.0 0.3 0.0 0.02 0.0 0.03 0.0 0.0 0.0
 0.02 0.0 0.3 0.0 0.0 0.0 0.03 0.0
 -0.18025780419999307 -2.865115752313512 0.0 0.0 0.3 0.0 0.02 0.0
 0.0 0.0 -0.18025780419999307 -2.865115752313512 0.02 0.0 0.3 0.0
86000000000.0 0.3 0.0 0.02 0.0 0.03 0.0 0.0 0.0
 0.02 0.0 0.3 0.0 0.0 0.0 0.03 0.0
 -0.7041385559548207 -2.7424386096856663 0.0 0.0 0.3 0.0 0.02 0.0
 0.0 0.0 -0.7041385559548207 -2.7424386096856663 0.02 0.0 0.3 0.0
88000000000.0 0.3 0.0 0.02 0.0 0.03 0.0 0.0 0.0
 0.02 0.0 0.3 0.0 0.0 0.0 0.03 0.0
 -1.189007338386438 -2.5267692127489183 0.0 0.0 0.3 0.0 0.02 0.0
 0.0 0.0 -1.189007338386438 -2.5267692127489183 0.02 0.0 0.3 0.0
90000000000.0 0.3 0.0 0.02 0.0 0.03 0.0 0.0 0.0
 0.02 0.0 0.3 0.0 0.0 0.0 0.03 0.0
 -1.6188950132627948 -2.2282178273958526 0.0 0.0 0.3 0.0 0.02 0.0
 0.0 0.0 -1.6188950132627948 -2.2282178273958526 0.02 0.0 0.3 0.0
92000000000.0 0.3 0.0 0.02 0.0 0.03 0.0 0.0 0.0
 0.02 0.0 0.3 0.0 0.0 0.0 0.03 0.0
 -1.9801990052792493 -1.8595306399148361 0.0 0.0 0.3 0.0 0.02 0.0
 0.0 0.0 -1.9801990052792493 -1.8595306399148361 0.02 0.0 0.3 0.0
94000000000.0 0.3 0.0 0.02 0.0 0.03 0.0 0.0 0.0
 0.02 0.0 0.3 0.0 0.0 0.0 0.03 0.0
 -2.2620966337651613 -1.435570176697031 0.0 0.0 0.3 0.0 0.02 0.0
 0.0 0.0 -2.2620966337651613 -1.435570176697031 0.02 0.0 0.3 0.0
96000000000.0 0.3 0.0 0.02 0.0 0.03 0.0 0.0 0.0
 0.02 0.0 0.3 0.0 0.0 0.0 0.03 0.0
 -2.456849528663139 -0.9727355417992216 0.0 0.0 0.3 0.0 0.02 0.0
 0.0 0.0 -2.456849528663139 -0.9727355417992216 0.02 0.0 0.3 0.0
98000000000.0 0.3 0.0 0.02 0.0 0.03 0.0 0.0 0.0
 0.02 0.0 0.3 0.0 0.0 0.0 0.03 0.0
 -2.559991405605227 -0.48834447821104887 0.0 0.0 0.3 0.0 0.02 0.0
 0.0 0.0 -2.559991405605227 -0.48834447821104887 0.02 0.0 0.3 0.0
100000000000.0 0.3 0.0 0.02 0.0 0.03 0.0 0.0 0.0
 0.02 0.0 0.3 0.0 0.0 0.0 0.03 0.0
 -2.5703957827688635 -9.443480903729231e-16 0.0 0.0 0.3 0.0 0.02 0.0
 0.0 0.0 -2.5703957827688635 -9.443480903729231e-16 0.02 0.0 0.3 0.0
